Circuit: * C:\Users\under\OneDrive - Universidad de Oviedo\Uni\Y2T1\TEC\PL\S5\Draft2.asc

WARNING: Node N002 is floating.

Direct Newton iteration for .op point succeeded.
Semiconductor Device Operating Points:
                        --- Bipolar Transistors ---
Name:       q1
Model:      npn
Ib:       6.76e-05
Ic:       6.76e-03
Vbe:      8.24e-01
Vbc:     -9.58e+00
Vce:      1.04e+01
BetaDC:   1.00e+02
Gm:       2.61e-01
Rpi:      3.83e+02
Rx:       0.00e+00
Ro:       0.00e+00
Cbe:      0.00e+00
Cbc:      0.00e+00
Cjs:      0.00e+00
BetaAC:   1.00e+02
Cbx:      0.00e+00
Ft:       0.00e+00



Date: Wed Dec 01 16:09:34 2021
Total elapsed time: 0.055 seconds.

tnom = 27
temp = 27
method = trap
totiter = 10
traniter = 0
tranpoints = 0
accept = 0
rejected = 0
matrix size = 7
fillins = 4
solver = Normal
Matrix Compiler1: 556 bytes object code size
Matrix Compiler2: 617 bytes object code size
