Circuit: * C:\Users\under\OneDrive - Universidad de Oviedo\Uni\Y2T1\TEC\PL\S5\Draft3.asc

Direct Newton iteration for .op point succeeded.
Semiconductor Device Operating Points:
                        --- MOSFET Transistors ---
Name:          m1
Model:       irf540
Id:          6.18e-02
Vgs:         3.25e+00
Vds:         3.82e+00
Vbs:         0.00e+00
Vth:         3.14e+00
Vdsat:       1.13e-01
Gm:          1.10e+00
Gds:         0.00e+00
Gmb:         0.00e+00
Cbd:         1.00e-09
Cbs:         1.51e-17
Cgsov:       1.08e-09
Cgdov:       4.19e-10
Cgbov:       0.00e+00
Cgs:         4.33e-10
Cgd:         0.00e+00
Cgb:         0.00e+00



Date: Wed Dec 01 15:14:20 2021
Total elapsed time: 0.125 seconds.

tnom = 27
temp = 27
method = trap
totiter = 4
traniter = 0
tranpoints = 0
accept = 0
rejected = 0
matrix size = 8
fillins = 0
solver = Normal
Matrix Compiler1: 326 bytes object code size
Matrix Compiler2: 560 bytes object code size
